Time		Channel	Type	Hex			Message
15:11:29.182	真实串口通道	RX	01 03 24 00 00 41 38 00 00 00 00 33 33 42 61 00 00 00 00 CC CD 41 B4 00 00 00 00 66 66 42 32 00 00 00 00 00 00 42 5C EF 7D	[ID:1] 读保持(4x)响应: 成功返回 36 字节
15:11:29.232	真实串口通道	TX	01 01 00 01 00 08 6C 0C	[ID:1] 读线圈(0x): 地址 1, 数量 8
15:11:29.294	真实串口通道	RX	01 01 01 55 91 B7	[ID:1] 读线圈(0x)响应: 成功返回 1 字节
15:11:29.344	真实串口通道	TX	01 02 00 01 00 08 28 0C	[ID:1] 读离散(1x): 地址 1, 数量 8
15:11:29.405	真实串口通道	RX	01 02 01 AA 21 F7	[ID:1] 读离散(1x)响应: 成功返回 1 字节
15:11:29.456	真实串口通道	TX	01 04 00 01 00 11 61 C6	[ID:1] 读输入(3x): 地址 1, 数量 17
15:11:29.552	真实串口通道	RX	01 04 22 00 0C 00 00 00 0D 00 00 00 0E 00 00 00 0F 00 00 00 10 00 00 00 11 00 00 00 12 00 00 00 13 00 00 00 16 AC 83	[ID:1] 读输入(3x)响应: 成功返回 34 字节
15:11:29.602	真实串口通道	TX	01 03 00 01 00 12 94 07	[ID:1] 读保持(4x): 地址 1, 数量 18
15:11:29.692	真实串口通道	RX	01 03 24 00 00 41 38 00 00 00 00 33 33 42 61 00 00 00 00 CC CD 41 B4 00 00 00 00 66 66 42 32 00 00 00 00 00 00 42 5C EF 7D	[ID:1] 读保持(4x)响应: 成功返回 36 字节
15:11:29.742	真实串口通道	TX	01 01 00 01 00 08 6C 0C	[ID:1] 读线圈(0x): 地址 1, 数量 8
15:11:29.792	真实串口通道	RX	01 01 01 55 91 B7	[ID:1] 读线圈(0x)响应: 成功返回 1 字节
15:11:29.842	真实串口通道	TX	01 02 00 01 00 08 28 0C	[ID:1] 读离散(1x): 地址 1, 数量 8
15:11:29.901	真实串口通道	RX	01 02 01 AA 21 F7	[ID:1] 读离散(1x)响应: 成功返回 1 字节
15:11:29.952	真实串口通道	TX	01 04 00 01 00 11 61 C6	[ID:1] 读输入(3x): 地址 1, 数量 17
15:11:30.049	真实串口通道	RX	01 04 22 00 0C 00 00 00 0D 00 00 00 0E 00 00 00 0F 00 00 00 10 00 00 00 11 00 00 00 12 00 00 00 13 00 00 00 16 AC 83	[ID:1] 读输入(3x)响应: 成功返回 34 字节
15:11:30.099	真实串口通道	TX	01 03 00 01 00 12 94 07	[ID:1] 读保持(4x): 地址 1, 数量 18
15:11:30.190	真实串口通道	RX	01 03 24 00 00 41 38 00 00 00 00 33 33 42 61 00 00 00 00 CC CD 41 B4 00 00 00 00 66 66 42 32 00 00 00 00 00 00 42 5C EF 7D	[ID:1] 读保持(4x)响应: 成功返回 36 字节
15:11:30.241	真实串口通道	TX	01 01 00 01 00 08 6C 0C	[ID:1] 读线圈(0x): 地址 1, 数量 8
15:11:30.302	真实串口通道	RX	01 01 01 55 91 B7	[ID:1] 读线圈(0x)响应: 成功返回 1 字节
15:11:30.352	真实串口通道	TX	01 02 00 01 00 08 28 0C	[ID:1] 读离散(1x): 地址 1, 数量 8
15:11:30.411	真实串口通道	RX	01 02 01 AA 21 F7	[ID:1] 读离散(1x)响应: 成功返回 1 字节
15:11:30.462	真实串口通道	TX	01 04 00 01 00 11 61 C6	[ID:1] 读输入(3x): 地址 1, 数量 17
15:11:30.559	真实串口通道	RX	01 04 22 00 0C 00 00 00 0D 00 00 00 0E 00 00 00 0F 00 00 00 10 00 00 00 11 00 00 00 12 00 00 00 13 00 00 00 16 AC 83	[ID:1] 读输入(3x)响应: 成功返回 34 字节
15:11:30.610	真实串口通道	TX	01 03 00 01 00 12 94 07	[ID:1] 读保持(4x): 地址 1, 数量 18
15:11:30.704	真实串口通道	RX	01 03 24 00 00 41 38 00 00 00 00 33 33 42 61 00 00 00 00 CC CD 41 B4 00 00 00 00 66 66 42 32 00 00 00 00 00 00 42 5C EF 7D	[ID:1] 读保持(4x)响应: 成功返回 36 字节
15:11:30.755	真实串口通道	TX	01 01 00 01 00 08 6C 0C	[ID:1] 读线圈(0x): 地址 1, 数量 8
15:11:30.805	真实串口通道	RX	01 01 01 55 91 B7	[ID:1] 读线圈(0x)响应: 成功返回 1 字节
15:11:30.856	真实串口通道	TX	01 02 00 01 00 08 28 0C	[ID:1] 读离散(1x): 地址 1, 数量 8
15:11:30.913	真实串口通道	RX	01 02 01 AA 21 F7	[ID:1] 读离散(1x)响应: 成功返回 1 字节
15:11:30.965	真实串口通道	TX	01 04 00 01 00 11 61 C6	[ID:1] 读输入(3x): 地址 1, 数量 17
15:11:31.061	真实串口通道	RX	01 04 22 00 0C 00 00 00 0D 00 00 00 0E 00 00 00 0F 00 00 00 10 00 00 00 11 00 00 00 12 00 00 00 13 00 00 00 16 AC 83	[ID:1] 读输入(3x)响应: 成功返回 34 字节
15:11:31.112	真实串口通道	TX	01 03 00 01 00 12 94 07	[ID:1] 读保持(4x): 地址 1, 数量 18
15:11:31.213	真实串口通道	RX	01 03 24 00 00 41 38 00 00 00 00 33 33 42 61 00 00 00 00 CC CD 41 B4 00 00 00 00 66 66 42 32 00 00 00 00 00 00 42 5C EF 7D	[ID:1] 读保持(4x)响应: 成功返回 36 字节
15:11:31.264	真实串口通道	TX	01 01 00 01 00 08 6C 0C	[ID:1] 读线圈(0x): 地址 1, 数量 8
15:11:31.314	真实串口通道	RX	01 01 01 55 91 B7	[ID:1] 读线圈(0x)响应: 成功返回 1 字节
15:11:31.364	真实串口通道	TX	01 02 00 01 00 08 28 0C	[ID:1] 读离散(1x): 地址 1, 数量 8
15:11:31.421	真实串口通道	RX	01 02 01 AA 21 F7	[ID:1] 读离散(1x)响应: 成功返回 1 字节
15:11:31.471	真实串口通道	TX	01 04 00 01 00 11 61 C6	[ID:1] 读输入(3x): 地址 1, 数量 17
15:11:31.568	真实串口通道	RX	01 04 22 00 0C 00 00 00 0D 00 00 00 0E 00 00 00 0F 00 00 00 10 00 00 00 11 00 00 00 12 00 00 00 13 00 00 00 16 AC 83	[ID:1] 读输入(3x)响应: 成功返回 34 字节
15:11:31.618	真实串口通道	TX	01 03 00 01 00 12 94 07	[ID:1] 读保持(4x): 地址 1, 数量 18
15:11:31.710	真实串口通道	RX	01 03 24 00 00 41 38 00 00 00 00 33 33 42 61 00 00 00 00 CC CD 41 B4 00 00 00 00 66 66 42 32 00 00 00 00 00 00 42 5C EF 7D	[ID:1] 读保持(4x)响应: 成功返回 36 字节
15:11:31.760	真实串口通道	TX	01 01 00 01 00 08 6C 0C	[ID:1] 读线圈(0x): 地址 1, 数量 8
15:11:31.807	真实串口通道	RX	01 01 01 55 91 B7	[ID:1] 读线圈(0x)响应: 成功返回 1 字节
15:11:31.858	真实串口通道	TX	01 02 00 01 00 08 28 0C	[ID:1] 读离散(1x): 地址 1, 数量 8
15:11:31.919	真实串口通道	RX	01 02 01 AA 21 F7	[ID:1] 读离散(1x)响应: 成功返回 1 字节
15:11:31.969	真实串口通道	TX	01 04 00 01 00 11 61 C6	[ID:1] 读输入(3x): 地址 1, 数量 17
15:11:32.065	真实串口通道	RX	01 04 22 00 0C 00 00 00 0D 00 00 00 0E 00 00 00 0F 00 00 00 10 00 00 00 11 00 00 00 12 00 00 00 13 00 00 00 16 AC 83	[ID:1] 读输入(3x)响应: 成功返回 34 字节
15:11:32.116	真实串口通道	TX	01 03 00 01 00 12 94 07	[ID:1] 读保持(4x): 地址 1, 数量 18
15:11:32.209	真实串口通道	RX	01 03 24 00 00 41 38 00 00 00 00 33 33 42 61 00 00 00 00 CC CD 41 B4 00 00 00 00 66 66 42 32 00 00 00 00 00 00 42 5C EF 7D	[ID:1] 读保持(4x)响应: 成功返回 36 字节
15:11:32.260	真实串口通道	TX	01 01 00 01 00 08 6C 0C	[ID:1] 读线圈(0x): 地址 1, 数量 8
15:11:32.324	真实串口通道	RX	01 01 01 55 91 B7	[ID:1] 读线圈(0x)响应: 成功返回 1 字节
15:11:32.374	真实串口通道	TX	01 02 00 01 00 08 28 0C	[ID:1] 读离散(1x): 地址 1, 数量 8
15:11:32.429	真实串口通道	RX	01 02 01 AA 21 F7	[ID:1] 读离散(1x)响应: 成功返回 1 字节
15:11:32.479	真实串口通道	TX	01 04 00 01 00 11 61 C6	[ID:1] 读输入(3x): 地址 1, 数量 17
15:11:32.576	真实串口通道	RX	01 04 22 00 0C 00 00 00 0D 00 00 00 0E 00 00 00 0F 00 00 00 10 00 00 00 11 00 00 00 12 00 00 00 13 00 00 00 16 AC 83	[ID:1] 读输入(3x)响应: 成功返回 34 字节
15:11:32.626	真实串口通道	TX	01 03 00 01 00 12 94 07	[ID:1] 读保持(4x): 地址 1, 数量 18
15:11:32.718	真实串口通道	RX	01 03 24 00 00 41 38 00 00 00 00 33 33 42 61 00 00 00 00 CC CD 41 B4 00 00 00 00 66 66 42 32 00 00 00 00 00 00 42 5C EF 7D	[ID:1] 读保持(4x)响应: 成功返回 36 字节
15:11:32.768	真实串口通道	TX	01 01 00 01 00 08 6C 0C	[ID:1] 读线圈(0x): 地址 1, 数量 8
15:11:32.833	真实串口通道	RX	01 01 01 55 91 B7	[ID:1] 读线圈(0x)响应: 成功返回 1 字节
15:11:32.883	真实串口通道	TX	01 02 00 01 00 08 28 0C	[ID:1] 读离散(1x): 地址 1, 数量 8
15:11:32.942	真实串口通道	RX	01 02 01 AA 21 F7	[ID:1] 读离散(1x)响应: 成功返回 1 字节
15:11:32.992	真实串口通道	TX	01 04 00 01 00 11 61 C6	[ID:1] 读输入(3x): 地址 1, 数量 17
15:11:33.085	真实串口通道	RX	01 04 22 00 0C 00 00 00 0D 00 00 00 0E 00 00 00 0F 00 00 00 10 00 00 00 11 00 00 00 12 00 00 00 13 00 00 00 16 AC 83	[ID:1] 读输入(3x)响应: 成功返回 34 字节
15:11:33.135	真实串口通道	TX	01 03 00 01 00 12 94 07	[ID:1] 读保持(4x): 地址 1, 数量 18
15:11:33.229	真实串口通道	RX	01 03 24 00 00 41 38 00 00 00 00 33 33 42 61 00 00 00 00 CC CD 41 B4 00 00 00 00 66 66 42 32 00 00 00 00 00 00 42 5C EF 7D	[ID:1] 读保持(4x)响应: 成功返回 36 字节
15:11:33.279	真实串口通道	TX	01 01 00 01 00 08 6C 0C	[ID:1] 读线圈(0x): 地址 1, 数量 8
15:11:33.329	真实串口通道	RX	01 01 01 55 91 B7	[ID:1] 读线圈(0x)响应: 成功返回 1 字节
15:11:33.379	真实串口通道	TX	01 02 00 01 00 08 28 0C	[ID:1] 读离散(1x): 地址 1, 数量 8
15:11:33.437	真实串口通道	RX	01 02 01 AA 21 F7	[ID:1] 读离散(1x)响应: 成功返回 1 字节
15:11:33.488	真实串口通道	TX	01 04 00 01 00 11 61 C6	[ID:1] 读输入(3x): 地址 1, 数量 17
15:11:33.585	真实串口通道	RX	01 04 22 00 0C 00 00 00 0D 00 00 00 0E 00 00 00 0F 00 00 00 10 00 00 00 11 00 00 00 12 00 00 00 13 00 00 00 16 AC 83	[ID:1] 读输入(3x)响应: 成功返回 34 字节
15:11:33.635	真实串口通道	TX	01 03 00 01 00 12 94 07	[ID:1] 读保持(4x): 地址 1, 数量 18
15:11:33.727	真实串口通道	RX	01 03 24 00 00 41 38 00 00 00 00 33 33 42 61 00 00 00 00 CC CD 41 B4 00 00 00 00 66 66 42 32 00 00 00 00 00 00 42 5C EF 7D	[ID:1] 读保持(4x)响应: 成功返回 36 字节
15:11:33.777	真实串口通道	TX	01 01 00 01 00 08 6C 0C	[ID:1] 读线圈(0x): 地址 1, 数量 8
15:11:33.826	真实串口通道	RX	01 01 01 55 91 B7	[ID:1] 读线圈(0x)响应: 成功返回 1 字节
15:11:33.877	真实串口通道	TX	01 02 00 01 00 08 28 0C	[ID:1] 读离散(1x): 地址 1, 数量 8
15:11:33.935	真实串口通道	RX	01 02 01 AA 21 F7	[ID:1] 读离散(1x)响应: 成功返回 1 字节
15:11:33.986	真实串口通道	TX	01 04 00 01 00 11 61 C6	[ID:1] 读输入(3x): 地址 1, 数量 17
15:11:34.078	真实串口通道	RX	01 04 22 00 0C 00 00 00 0D 00 00 00 0E 00 00 00 0F 00 00 00 10 00 00 00 11 00 00 00 12 00 00 00 13 00 00 00 16 AC 83	[ID:1] 读输入(3x)响应: 成功返回 34 字节
15:11:34.128	真实串口通道	TX	01 03 00 01 00 12 94 07	[ID:1] 读保持(4x): 地址 1, 数量 18
15:11:34.220	真实串口通道	RX	01 03 24 00 00 41 38 00 00 00 00 33 33 42 61 00 00 00 00 CC CD 41 B4 00 00 00 00 66 66 42 32 00 00 00 00 00 00 42 5C EF 7D	[ID:1] 读保持(4x)响应: 成功返回 36 字节
15:11:34.270	真实串口通道	TX	01 01 00 01 00 08 6C 0C	[ID:1] 读线圈(0x): 地址 1, 数量 8
15:11:34.322	真实串口通道	RX	01 01 01 55 91 B7	[ID:1] 读线圈(0x)响应: 成功返回 1 字节
15:11:34.372	真实串口通道	TX	01 02 00 01 00 08 28 0C	[ID:1] 读离散(1x): 地址 1, 数量 8
15:11:34.429	真实串口通道	RX	01 02 01 AA 21 F7	[ID:1] 读离散(1x)响应: 成功返回 1 字节
15:11:34.479	真实串口通道	TX	01 04 00 01 00 11 61 C6	[ID:1] 读输入(3x): 地址 1, 数量 17
15:11:34.576	真实串口通道	RX	01 04 22 00 0C 00 00 00 0D 00 00 00 0E 00 00 00 0F 00 00 00 10 00 00 00 11 00 00 00 12 00 00 00 13 00 00 00 16 AC 83	[ID:1] 读输入(3x)响应: 成功返回 34 字节
15:11:34.626	真实串口通道	TX	01 03 00 01 00 12 94 07	[ID:1] 读保持(4x): 地址 1, 数量 18
15:11:34.718	真实串口通道	RX	01 03 24 00 00 41 38 00 00 00 00 33 33 42 61 00 00 00 00 CC CD 41 B4 00 00 00 00 66 66 42 32 00 00 00 00 00 00 42 5C EF 7D	[ID:1] 读保持(4x)响应: 成功返回 36 字节
15:11:34.768	真实串口通道	TX	01 01 00 01 00 08 6C 0C	[ID:1] 读线圈(0x): 地址 1, 数量 8
15:11:34.835	真实串口通道	RX	01 01 01 55 91 B7	[ID:1] 读线圈(0x)响应: 成功返回 1 字节
15:11:34.885	真实串口通道	TX	01 02 00 01 00 08 28 0C	[ID:1] 读离散(1x): 地址 1, 数量 8
15:11:34.944	真实串口通道	RX	01 02 01 AA 21 F7	[ID:1] 读离散(1x)响应: 成功返回 1 字节
15:11:34.994	真实串口通道	TX	01 04 00 01 00 11 61 C6	[ID:1] 读输入(3x): 地址 1, 数量 17
15:11:35.088	真实串口通道	RX	01 04 22 00 0C 00 00 00 0D 00 00 00 0E 00 00 00 0F 00 00 00 10 00 00 00 11 00 00 00 12 00 00 00 13 00 00 00 16 AC 83	[ID:1] 读输入(3x)响应: 成功返回 34 字节
15:11:35.138	真实串口通道	TX	01 03 00 01 00 12 94 07	[ID:1] 读保持(4x): 地址 1, 数量 18
15:11:35.233	真实串口通道	RX	01 03 24 00 00 41 38 00 00 00 00 33 33 42 61 00 00 00 00 CC CD 41 B4 00 00 00 00 66 66 42 32 00 00 00 00 00 00 42 5C EF 7D	[ID:1] 读保持(4x)响应: 成功返回 36 字节
15:11:35.283	真实串口通道	TX	01 01 00 01 00 08 6C 0C	[ID:1] 读线圈(0x): 地址 1, 数量 8
15:11:35.342	真实串口通道	RX	01 01 01 55 91 B7	[ID:1] 读线圈(0x)响应: 成功返回 1 字节
15:11:35.393	真实串口通道	TX	01 02 00 01 00 08 28 0C	[ID:1] 读离散(1x): 地址 1, 数量 8
15:11:35.450	真实串口通道	RX	01 02 01 AA 21 F7	[ID:1] 读离散(1x)响应: 成功返回 1 字节
15:11:35.501	真实串口通道	TX	01 04 00 01 00 11 61 C6	[ID:1] 读输入(3x): 地址 1, 数量 17
15:11:35.598	真实串口通道	RX	01 04 22 00 0C 00 00 00 0D 00 00 00 0E 00 00 00 0F 00 00 00 10 00 00 00 11 00 00 00 12 00 00 00 13 00 00 00 16 AC 83	[ID:1] 读输入(3x)响应: 成功返回 34 字节
15:11:35.648	真实串口通道	TX	01 03 00 01 00 12 94 07	[ID:1] 读保持(4x): 地址 1, 数量 18
15:11:35.737	真实串口通道	RX	01 03 24 00 00 41 38 00 00 00 00 33 33 42 61 00 00 00 00 CC CD 41 B4 00 00 00 00 66 66 42 32 00 00 00 00 00 00 42 5C EF 7D	[ID:1] 读保持(4x)响应: 成功返回 36 字节
15:11:35.787	真实串口通道	TX	01 01 00 01 00 08 6C 0C	[ID:1] 读线圈(0x): 地址 1, 数量 8
15:11:35.839	真实串口通道	RX	01 01 01 55 91 B7	[ID:1] 读线圈(0x)响应: 成功返回 1 字节
15:11:35.889	真实串口通道	TX	01 02 00 01 00 08 28 0C	[ID:1] 读离散(1x): 地址 1, 数量 8
15:11:35.945	真实串口通道	RX	01 02 01 AA 21 F7	[ID:1] 读离散(1x)响应: 成功返回 1 字节
15:11:35.996	真实串口通道	TX	01 04 00 01 00 11 61 C6	[ID:1] 读输入(3x): 地址 1, 数量 17
15:11:36.092	真实串口通道	RX	01 04 22 00 0C 00 00 00 0D 00 00 00 0E 00 00 00 0F 00 00 00 10 00 00 00 11 00 00 00 12 00 00 00 13 00 00 00 16 AC 83	[ID:1] 读输入(3x)响应: 成功返回 34 字节
15:11:36.142	真实串口通道	TX	01 03 00 01 00 12 94 07	[ID:1] 读保持(4x): 地址 1, 数量 18
15:11:36.237	真实串口通道	RX	01 03 24 00 00 41 38 00 00 00 00 33 33 42 61 00 00 00 00 CC CD 41 B4 00 00 00 00 66 66 42 32 00 00 00 00 00 00 42 5C EF 7D	[ID:1] 读保持(4x)响应: 成功返回 36 字节
15:11:36.288	真实串口通道	TX	01 01 00 01 00 08 6C 0C	[ID:1] 读线圈(0x): 地址 1, 数量 8
15:11:36.351	真实串口通道	RX	01 01 01 55 91 B7	[ID:1] 读线圈(0x)响应: 成功返回 1 字节
15:11:36.401	真实串口通道	TX	01 02 00 01 00 08 28 0C	[ID:1] 读离散(1x): 地址 1, 数量 8
15:11:36.458	真实串口通道	RX	01 02 01 AA 21 F7	[ID:1] 读离散(1x)响应: 成功返回 1 字节
15:11:36.509	真实串口通道	TX	01 04 00 01 00 11 61 C6	[ID:1] 读输入(3x): 地址 1, 数量 17
15:11:36.604	真实串口通道	RX	01 04 22 00 0C 00 00 00 0D 00 00 00 0E 00 00 00 0F 00 00 00 10 00 00 00 11 00 00 00 12 00 00 00 13 00 00 00 16 AC 83	[ID:1] 读输入(3x)响应: 成功返回 34 字节
15:11:36.655	真实串口通道	TX	01 03 00 01 00 12 94 07	[ID:1] 读保持(4x): 地址 1, 数量 18
15:11:36.746	真实串口通道	RX	01 03 24 00 00 41 38 00 00 00 00 33 33 42 61 00 00 00 00 CC CD 41 B4 00 00 00 00 66 66 42 32 00 00 00 00 00 00 42 5C EF 7D	[ID:1] 读保持(4x)响应: 成功返回 36 字节
15:11:36.797	真实串口通道	TX	01 01 00 01 00 08 6C 0C	[ID:1] 读线圈(0x): 地址 1, 数量 8
15:11:36.856	真实串口通道	RX	01 01 01 55 91 B7	[ID:1] 读线圈(0x)响应: 成功返回 1 字节
15:11:36.907	真实串口通道	TX	01 02 00 01 00 08 28 0C	[ID:1] 读离散(1x): 地址 1, 数量 8
15:11:36.963	真实串口通道	RX	01 02 01 AA 21 F7	[ID:1] 读离散(1x)响应: 成功返回 1 字节
15:11:37.014	真实串口通道	TX	01 04 00 01 00 11 61 C6	[ID:1] 读输入(3x): 地址 1, 数量 17
15:11:37.113	真实串口通道	RX	01 04 22 00 0C 00 00 00 0D 00 00 00 0E 00 00 00 0F 00 00 00 10 00 00 00 11 00 00 00 12 00 00 00 13 00 00 00 16 AC 83	[ID:1] 读输入(3x)响应: 成功返回 34 字节
15:11:37.163	真实串口通道	TX	01 03 00 01 00 12 94 07	[ID:1] 读保持(4x): 地址 1, 数量 18
15:11:37.253	真实串口通道	RX	01 03 24 00 00 41 38 00 00 00 00 33 33 42 61 00 00 00 00 CC CD 41 B4 00 00 00 00 66 66 42 32 00 00 00 00 00 00 42 5C EF 7D	[ID:1] 读保持(4x)响应: 成功返回 36 字节
15:11:37.304	真实串口通道	TX	01 01 00 01 00 08 6C 0C	[ID:1] 读线圈(0x): 地址 1, 数量 8
15:11:37.356	真实串口通道	RX	01 01 01 55 91 B7	[ID:1] 读线圈(0x)响应: 成功返回 1 字节
15:11:37.407	真实串口通道	TX	01 02 00 01 00 08 28 0C	[ID:1] 读离散(1x): 地址 1, 数量 8
15:11:37.464	真实串口通道	RX	01 02 01 AA 21 F7	[ID:1] 读离散(1x)响应: 成功返回 1 字节
15:11:37.514	真实串口通道	TX	01 04 00 01 00 11 61 C6	[ID:1] 读输入(3x): 地址 1, 数量 17
15:11:37.609	真实串口通道	RX	01 04 22 00 0C 00 00 00 0D 00 00 00 0E 00 00 00 0F 00 00 00 10 00 00 00 11 00 00 00 12 00 00 00 13 00 00 00 16 AC 83	[ID:1] 读输入(3x)响应: 成功返回 34 字节
15:11:37.659	真实串口通道	TX	01 03 00 01 00 12 94 07	[ID:1] 读保持(4x): 地址 1, 数量 18
15:11:37.751	真实串口通道	RX	01 03 24 00 00 41 38 00 00 00 00 33 33 42 61 00 00 00 00 CC CD 41 B4 00 00 00 00 66 66 42 32 00 00 00 00 00 00 42 5C EF 7D	[ID:1] 读保持(4x)响应: 成功返回 36 字节
15:11:37.801	真实串口通道	TX	01 01 00 01 00 08 6C 0C	[ID:1] 读线圈(0x): 地址 1, 数量 8
15:11:37.865	真实串口通道	RX	01 01 01 55 91 B7	[ID:1] 读线圈(0x)响应: 成功返回 1 字节
15:11:37.915	真实串口通道	TX	01 02 00 01 00 08 28 0C	[ID:1] 读离散(1x): 地址 1, 数量 8
15:11:37.970	真实串口通道	RX	01 02 01 AA 21 F7	[ID:1] 读离散(1x)响应: 成功返回 1 字节
15:11:38.021	真实串口通道	TX	01 04 00 01 00 11 61 C6	[ID:1] 读输入(3x): 地址 1, 数量 17
15:11:38.117	真实串口通道	RX	01 04 22 00 0C 00 00 00 0D 00 00 00 0E 00 00 00 0F 00 00 00 10 00 00 00 11 00 00 00 12 00 00 00 13 00 00 00 16 AC 83	[ID:1] 读输入(3x)响应: 成功返回 34 字节
15:11:38.168	真实串口通道	TX	01 03 00 01 00 12 94 07	[ID:1] 读保持(4x): 地址 1, 数量 18
15:11:38.259	真实串口通道	RX	01 03 24 00 00 41 38 00 00 00 00 33 33 42 61 00 00 00 00 CC CD 41 B4 00 00 00 00 66 66 42 32 00 00 00 00 00 00 42 5C EF 7D	[ID:1] 读保持(4x)响应: 成功返回 36 字节
15:11:38.309	真实串口通道	TX	01 01 00 01 00 08 6C 0C	[ID:1] 读线圈(0x): 地址 1, 数量 8
15:11:38.371	真实串口通道	RX	01 01 01 55 91 B7	[ID:1] 读线圈(0x)响应: 成功返回 1 字节
15:11:38.421	真实串口通道	TX	01 02 00 01 00 08 28 0C	[ID:1] 读离散(1x): 地址 1, 数量 8
15:11:38.476	真实串口通道	RX	01 02 01 AA 21 F7	[ID:1] 读离散(1x)响应: 成功返回 1 字节
15:11:38.526	真实串口通道	TX	01 04 00 01 00 11 61 C6	[ID:1] 读输入(3x): 地址 1, 数量 17
15:11:38.623	真实串口通道	RX	01 04 22 00 0C 00 00 00 0D 00 00 00 0E 00 00 00 0F 00 00 00 10 00 00 00 11 00 00 00 12 00 00 00 13 00 00 00 16 AC 83	[ID:1] 读输入(3x)响应: 成功返回 34 字节
15:11:38.673	真实串口通道	TX	01 03 00 01 00 12 94 07	[ID:1] 读保持(4x): 地址 1, 数量 18
15:11:38.765	真实串口通道	RX	01 03 24 00 00 41 38 00 00 00 00 33 33 42 61 00 00 00 00 CC CD 41 B4 00 00 00 00 66 66 42 32 00 00 00 00 00 00 42 5C EF 7D	[ID:1] 读保持(4x)响应: 成功返回 36 字节
15:11:38.815	真实串口通道	TX	01 01 00 01 00 08 6C 0C	[ID:1] 读线圈(0x): 地址 1, 数量 8
15:11:38.879	真实串口通道	RX	01 01 01 55 91 B7	[ID:1] 读线圈(0x)响应: 成功返回 1 字节
15:11:38.930	真实串口通道	TX	01 02 00 01 00 08 28 0C	[ID:1] 读离散(1x): 地址 1, 数量 8
15:11:38.988	真实串口通道	RX	01 02 01 AA 21 F7	[ID:1] 读离散(1x)响应: 成功返回 1 字节
15:11:39.039	真实串口通道	TX	01 04 00 01 00 11 61 C6	[ID:1] 读输入(3x): 地址 1, 数量 17
15:11:39.131	真实串口通道	RX	01 04 22 00 0C 00 00 00 0D 00 00 00 0E 00 00 00 0F 00 00 00 10 00 00 00 11 00 00 00 12 00 00 00 13 00 00 00 16 AC 83	[ID:1] 读输入(3x)响应: 成功返回 34 字节
15:11:39.182	真实串口通道	TX	01 03 00 01 00 12 94 07	[ID:1] 读保持(4x): 地址 1, 数量 18
15:11:39.273	真实串口通道	RX	01 03 24 00 00 41 38 00 00 00 00 33 33 42 61 00 00 00 00 CC CD 41 B4 00 00 00 00 66 66 42 32 00 00 00 00 00 00 42 5C EF 7D	[ID:1] 读保持(4x)响应: 成功返回 36 字节
15:11:39.324	真实串口通道	TX	01 01 00 01 00 08 6C 0C	[ID:1] 读线圈(0x): 地址 1, 数量 8
15:11:39.388	真实串口通道	RX	01 01 01 55 91 B7	[ID:1] 读线圈(0x)响应: 成功返回 1 字节
15:11:39.438	真实串口通道	TX	01 02 00 01 00 08 28 0C	[ID:1] 读离散(1x): 地址 1, 数量 8
15:11:39.495	真实串口通道	RX	01 02 01 AA 21 F7	[ID:1] 读离散(1x)响应: 成功返回 1 字节
15:11:39.546	真实串口通道	TX	01 04 00 01 00 11 61 C6	[ID:1] 读输入(3x): 地址 1, 数量 17
15:11:39.642	真实串口通道	RX	01 04 22 00 0C 00 00 00 0D 00 00 00 0E 00 00 00 0F 00 00 00 10 00 00 00 11 00 00 00 12 00 00 00 13 00 00 00 16 AC 83	[ID:1] 读输入(3x)响应: 成功返回 34 字节
15:11:39.693	真实串口通道	TX	01 03 00 01 00 12 94 07	[ID:1] 读保持(4x): 地址 1, 数量 18
15:11:39.782	真实串口通道	RX	01 03 24 00 00 41 38 00 00 00 00 33 33 42 61 00 00 00 00 CC CD 41 B4 00 00 00 00 66 66 42 32 00 00 00 00 00 00 42 5C EF 7D	[ID:1] 读保持(4x)响应: 成功返回 36 字节
15:11:39.832	真实串口通道	TX	01 01 00 01 00 08 6C 0C	[ID:1] 读线圈(0x): 地址 1, 数量 8
15:11:39.881	真实串口通道	RX	01 01 01 55 91 B7	[ID:1] 读线圈(0x)响应: 成功返回 1 字节
15:11:39.932	真实串口通道	TX	01 02 00 01 00 08 28 0C	[ID:1] 读离散(1x): 地址 1, 数量 8
15:11:39.987	真实串口通道	RX	01 02 01 AA 21 F7	[ID:1] 读离散(1x)响应: 成功返回 1 字节
15:11:40.037	真实串口通道	TX	01 04 00 01 00 11 61 C6	[ID:1] 读输入(3x): 地址 1, 数量 17
15:11:40.131	真实串口通道	RX	01 04 22 00 0C 00 00 00 0D 00 00 00 0E 00 00 00 0F 00 00 00 10 00 00 00 11 00 00 00 12 00 00 00 13 00 00 00 16 AC 83	[ID:1] 读输入(3x)响应: 成功返回 34 字节
15:11:40.181	真实串口通道	TX	01 03 00 01 00 12 94 07	[ID:1] 读保持(4x): 地址 1, 数量 18
15:11:40.273	真实串口通道	RX	01 03 24 00 00 41 38 00 00 00 00 33 33 42 61 00 00 00 00 CC CD 41 B4 00 00 00 00 66 66 42 32 00 00 00 00 00 00 42 5C EF 7D	[ID:1] 读保持(4x)响应: 成功返回 36 字节
15:11:40.323	真实串口通道	TX	01 01 00 01 00 08 6C 0C	[ID:1] 读线圈(0x): 地址 1, 数量 8
15:11:40.387	真实串口通道	RX	01 01 01 55 91 B7	[ID:1] 读线圈(0x)响应: 成功返回 1 字节
15:11:40.438	真实串口通道	TX	01 02 00 01 00 08 28 0C	[ID:1] 读离散(1x): 地址 1, 数量 8
15:11:40.494	真实串口通道	RX	01 02 01 AA 21 F7	[ID:1] 读离散(1x)响应: 成功返回 1 字节
15:11:40.544	真实串口通道	TX	01 04 00 01 00 11 61 C6	[ID:1] 读输入(3x): 地址 1, 数量 17
15:11:40.639	真实串口通道	RX	01 04 22 00 0C 00 00 00 0D 00 00 00 0E 00 00 00 0F 00 00 00 10 00 00 00 11 00 00 00 12 00 00 00 13 00 00 00 16 AC 83	[ID:1] 读输入(3x)响应: 成功返回 34 字节
15:11:40.689	真实串口通道	TX	01 03 00 01 00 12 94 07	[ID:1] 读保持(4x): 地址 1, 数量 18
15:11:40.781	真实串口通道	RX	01 03 24 00 00 41 38 00 00 00 00 33 33 42 61 00 00 00 00 CC CD 41 B4 00 00 00 00 66 66 42 32 00 00 00 00 00 00 42 5C EF 7D	[ID:1] 读保持(4x)响应: 成功返回 36 字节
15:11:40.831	真实串口通道	TX	01 01 00 01 00 08 6C 0C	[ID:1] 读线圈(0x): 地址 1, 数量 8
15:11:40.880	真实串口通道	RX	01 01 01 55 91 B7	[ID:1] 读线圈(0x)响应: 成功返回 1 字节
15:11:40.933	真实串口通道	TX	01 02 00 01 00 08 28 0C	[ID:1] 读离散(1x): 地址 1, 数量 8
15:11:40.987	真实串口通道	RX	01 02 01 AA 21 F7	[ID:1] 读离散(1x)响应: 成功返回 1 字节
15:11:41.038	真实串口通道	TX	01 04 00 01 00 11 61 C6	[ID:1] 读输入(3x): 地址 1, 数量 17
15:11:41.133	真实串口通道	RX	01 04 22 00 0C 00 00 00 0D 00 00 00 0E 00 00 00 0F 00 00 00 10 00 00 00 11 00 00 00 12 00 00 00 13 00 00 00 16 AC 83	[ID:1] 读输入(3x)响应: 成功返回 34 字节
15:11:41.184	真实串口通道	TX	01 03 00 01 00 12 94 07	[ID:1] 读保持(4x): 地址 1, 数量 18
15:11:41.273	真实串口通道	RX	01 03 24 00 00 41 38 00 00 00 00 33 33 42 61 00 00 00 00 CC CD 41 B4 00 00 00 00 66 66 42 32 00 00 00 00 00 00 42 5C EF 7D	[ID:1] 读保持(4x)响应: 成功返回 36 字节
15:11:41.323	真实串口通道	TX	01 01 00 01 00 08 6C 0C	[ID:1] 读线圈(0x): 地址 1, 数量 8
15:11:41.375	真实串口通道	RX	01 01 01 55 91 B7	[ID:1] 读线圈(0x)响应: 成功返回 1 字节
15:11:41.426	真实串口通道	TX	01 02 00 01 00 08 28 0C	[ID:1] 读离散(1x): 地址 1, 数量 8
15:11:41.482	真实串口通道	RX	01 02 01 AA 21 F7	[ID:1] 读离散(1x)响应: 成功返回 1 字节
15:11:41.533	真实串口通道	TX	01 04 00 01 00 11 61 C6	[ID:1] 读输入(3x): 地址 1, 数量 17
15:11:41.627	真实串口通道	RX	01 04 22 00 0C 00 00 00 0D 00 00 00 0E 00 00 00 0F 00 00 00 10 00 00 00 11 00 00 00 12 00 00 00 13 00 00 00 16 AC 83	[ID:1] 读输入(3x)响应: 成功返回 34 字节
15:11:41.677	真实串口通道	TX	01 03 00 01 00 12 94 07	[ID:1] 读保持(4x): 地址 1, 数量 18
15:11:41.769	真实串口通道	RX	01 03 24 00 00 41 38 00 00 00 00 33 33 42 61 00 00 00 00 CC CD 41 B4 00 00 00 00 66 66 42 32 00 00 00 00 00 00 42 5C EF 7D	[ID:1] 读保持(4x)响应: 成功返回 36 字节
15:11:41.820	真实串口通道	TX	01 01 00 01 00 08 6C 0C	[ID:1] 读线圈(0x): 地址 1, 数量 8
15:11:41.881	真实串口通道	RX	01 01 01 55 91 B7	[ID:1] 读线圈(0x)响应: 成功返回 1 字节
15:11:41.932	真实串口通道	TX	01 02 00 01 00 08 28 0C	[ID:1] 读离散(1x): 地址 1, 数量 8
15:11:41.990	真实串口通道	RX	01 02 01 AA 21 F7	[ID:1] 读离散(1x)响应: 成功返回 1 字节
15:11:42.041	真实串口通道	TX	01 04 00 01 00 11 61 C6	[ID:1] 读输入(3x): 地址 1, 数量 17
15:11:42.136	真实串口通道	RX	01 04 22 00 0C 00 00 00 0D 00 00 00 0E 00 00 00 0F 00 00 00 10 00 00 00 11 00 00 00 12 00 00 00 13 00 00 00 16 AC 83	[ID:1] 读输入(3x)响应: 成功返回 34 字节
15:11:42.186	真实串口通道	TX	01 03 00 01 00 12 94 07	[ID:1] 读保持(4x): 地址 1, 数量 18
15:11:42.278	真实串口通道	RX	01 03 24 00 00 41 38 00 00 00 00 33 33 42 61 00 00 00 00 CC CD 41 B4 00 00 00 00 66 66 42 32 00 00 00 00 00 00 42 5C EF 7D	[ID:1] 读保持(4x)响应: 成功返回 36 字节
15:11:42.329	真实串口通道	TX	01 01 00 01 00 08 6C 0C	[ID:1] 读线圈(0x): 地址 1, 数量 8
15:11:42.392	真实串口通道	RX	01 01 01 55 91 B7	[ID:1] 读线圈(0x)响应: 成功返回 1 字节
15:11:42.443	真实串口通道	TX	01 02 00 01 00 08 28 0C	[ID:1] 读离散(1x): 地址 1, 数量 8
15:11:42.503	真实串口通道	RX	01 02 01 AA 21 F7	[ID:1] 读离散(1x)响应: 成功返回 1 字节
15:11:42.554	真实串口通道	TX	01 04 00 01 00 11 61 C6	[ID:1] 读输入(3x): 地址 1, 数量 17
15:11:42.648	真实串口通道	RX	01 04 22 00 0C 00 00 00 0D 00 00 00 0E 00 00 00 0F 00 00 00 10 00 00 00 11 00 00 00 12 00 00 00 13 00 00 00 16 AC 83	[ID:1] 读输入(3x)响应: 成功返回 34 字节
15:11:42.698	真实串口通道	TX	01 03 00 01 00 12 94 07	[ID:1] 读保持(4x): 地址 1, 数量 18
15:11:42.790	真实串口通道	RX	01 03 24 00 00 41 38 00 00 00 00 33 33 42 61 00 00 00 00 CC CD 41 B4 00 00 00 00 66 66 42 32 00 00 00 00 00 00 42 5C EF 7D	[ID:1] 读保持(4x)响应: 成功返回 36 字节
15:11:42.840	真实串口通道	TX	01 01 00 01 00 08 6C 0C	[ID:1] 读线圈(0x): 地址 1, 数量 8
15:11:42.890	真实串口通道	RX	01 01 01 55 91 B7	[ID:1] 读线圈(0x)响应: 成功返回 1 字节
15:11:42.941	真实串口通道	TX	01 02 00 01 00 08 28 0C	[ID:1] 读离散(1x): 地址 1, 数量 8
15:11:43.000	真实串口通道	RX	01 02 01 AA 21 F7	[ID:1] 读离散(1x)响应: 成功返回 1 字节
15:11:43.051	真实串口通道	TX	01 04 00 01 00 11 61 C6	[ID:1] 读输入(3x): 地址 1, 数量 17
15:11:43.145	真实串口通道	RX	01 04 22 00 0C 00 00 00 0D 00 00 00 0E 00 00 00 0F 00 00 00 10 00 00 00 11 00 00 00 12 00 00 00 13 00 00 00 16 AC 83	[ID:1] 读输入(3x)响应: 成功返回 34 字节
15:11:43.196	真实串口通道	TX	01 03 00 01 00 12 94 07	[ID:1] 读保持(4x): 地址 1, 数量 18
15:11:43.289	真实串口通道	RX	01 03 24 00 00 41 38 00 00 00 00 33 33 42 61 00 00 00 00 CC CD 41 B4 00 00 00 00 66 66 42 32 00 00 00 00 00 00 42 5C EF 7D	[ID:1] 读保持(4x)响应: 成功返回 36 字节
15:11:43.340	真实串口通道	TX	01 01 00 01 00 08 6C 0C	[ID:1] 读线圈(0x): 地址 1, 数量 8
15:11:43.404	真实串口通道	RX	01 01 01 55 91 B7	[ID:1] 读线圈(0x)响应: 成功返回 1 字节
15:11:43.454	真实串口通道	TX	01 02 00 01 00 08 28 0C	[ID:1] 读离散(1x): 地址 1, 数量 8
15:11:43.513	真实串口通道	RX	01 02 01 AA 21 F7	[ID:1] 读离散(1x)响应: 成功返回 1 字节
15:11:43.564	真实串口通道	TX	01 04 00 01 00 11 61 C6	[ID:1] 读输入(3x): 地址 1, 数量 17
15:11:43.658	真实串口通道	RX	01 04 22 00 0C 00 00 00 0D 00 00 00 0E 00 00 00 0F 00 00 00 10 00 00 00 11 00 00 00 12 00 00 00 13 00 00 00 16 AC 83	[ID:1] 读输入(3x)响应: 成功返回 34 字节
15:11:43.708	真实串口通道	TX	01 03 00 01 00 12 94 07	[ID:1] 读保持(4x): 地址 1, 数量 18
15:11:43.800	真实串口通道	RX	01 03 24 00 00 41 38 00 00 00 00 33 33 42 61 00 00 00 00 CC CD 41 B4 00 00 00 00 66 66 42 32 00 00 00 00 00 00 42 5C EF 7D	[ID:1] 读保持(4x)响应: 成功返回 36 字节
15:11:43.850	真实串口通道	TX	01 01 00 01 00 08 6C 0C	[ID:1] 读线圈(0x): 地址 1, 数量 8
15:11:43.912	真实串口通道	RX	01 01 01 55 91 B7	[ID:1] 读线圈(0x)响应: 成功返回 1 字节
15:11:43.962	真实串口通道	TX	01 02 00 01 00 08 28 0C	[ID:1] 读离散(1x): 地址 1, 数量 8
15:11:44.022	真实串口通道	RX	01 02 01 AA 21 F7	[ID:1] 读离散(1x)响应: 成功返回 1 字节
15:11:44.072	真实串口通道	TX	01 04 00 01 00 11 61 C6	[ID:1] 读输入(3x): 地址 1, 数量 17
15:11:44.169	真实串口通道	RX	01 04 22 00 0C 00 00 00 0D 00 00 00 0E 00 00 00 0F 00 00 00 10 00 00 00 11 00 00 00 12 00 00 00 13 00 00 00 16 AC 83	[ID:1] 读输入(3x)响应: 成功返回 34 字节
15:11:44.219	真实串口通道	TX	01 03 00 01 00 12 94 07	[ID:1] 读保持(4x): 地址 1, 数量 18
15:11:44.311	真实串口通道	RX	01 03 24 00 00 41 38 00 00 00 00 33 33 42 61 00 00 00 00 CC CD 41 B4 00 00 00 00 66 66 42 32 00 00 00 00 00 00 42 5C EF 7D	[ID:1] 读保持(4x)响应: 成功返回 36 字节
15:11:44.361	真实串口通道	TX	01 01 00 01 00 08 6C 0C	[ID:1] 读线圈(0x): 地址 1, 数量 8
15:11:44.423	真实串口通道	RX	01 01 01 55 91 B7	[ID:1] 读线圈(0x)响应: 成功返回 1 字节
15:11:44.474	真实串口通道	TX	01 02 00 01 00 08 28 0C	[ID:1] 读离散(1x): 地址 1, 数量 8
15:11:44.533	真实串口通道	RX	01 02 01 AA 21 F7	[ID:1] 读离散(1x)响应: 成功返回 1 字节
15:11:44.583	真实串口通道	TX	01 04 00 01 00 11 61 C6	[ID:1] 读输入(3x): 地址 1, 数量 17
15:11:44.677	真实串口通道	RX	01 04 22 00 0C 00 00 00 0D 00 00 00 0E 00 00 00 0F 00 00 00 10 00 00 00 11 00 00 00 12 00 00 00 13 00 00 00 16 AC 83	[ID:1] 读输入(3x)响应: 成功返回 34 字节
15:11:44.728	真实串口通道	TX	01 03 00 01 00 12 94 07	[ID:1] 读保持(4x): 地址 1, 数量 18
15:11:44.820	真实串口通道	RX	01 03 24 00 00 41 38 00 00 00 00 33 33 42 61 00 00 00 00 CC CD 41 B4 00 00 00 00 66 66 42 32 00 00 00 00 00 00 42 5C EF 7D	[ID:1] 读保持(4x)响应: 成功返回 36 字节
15:11:44.870	真实串口通道	TX	01 01 00 01 00 08 6C 0C	[ID:1] 读线圈(0x): 地址 1, 数量 8
15:11:44.919	真实串口通道	RX	01 01 01 55 91 B7	[ID:1] 读线圈(0x)响应: 成功返回 1 字节
15:11:44.970	真实串口通道	TX	01 02 00 01 00 08 28 0C	[ID:1] 读离散(1x): 地址 1, 数量 8
15:11:45.029	真实串口通道	RX	01 02 01 AA 21 F7	[ID:1] 读离散(1x)响应: 成功返回 1 字节
15:11:45.080	真实串口通道	TX	01 04 00 01 00 11 61 C6	[ID:1] 读输入(3x): 地址 1, 数量 17
15:11:45.175	真实串口通道	RX	01 04 22 00 0C 00 00 00 0D 00 00 00 0E 00 00 00 0F 00 00 00 10 00 00 00 11 00 00 00 12 00 00 00 13 00 00 00 16 AC 83	[ID:1] 读输入(3x)响应: 成功返回 34 字节
15:11:45.226	真实串口通道	TX	01 03 00 01 00 12 94 07	[ID:1] 读保持(4x): 地址 1, 数量 18
